
T02E8 000:730 SEGGER J-Link V4.40c Log File (0001ms, 0727ms total)
T02E8 000:730 DLL Compiled: Jan 24 2012 09:30:33 (0001ms, 0727ms total)
T02E8 000:730 Logging started @ 2012-09-06 22:39 (0001ms, 0727ms total)
T02E8 000:731 JLINK_SetWarnOutHandler(...) (0000ms, 0728ms total)
T02E8 000:731 JLINK_OpenEx(...)
Firmware: J-Link ARM V8 compiled Aug  1 2012 13:40:47
Hardware: V8.00
S/N: 20100214
Feature(s): RDI,FlashDL,FlashBP,JFlash,GDBFull  returns O.K. (0373ms, 0728ms total)
T02E8 001:104 JLINK_SetErrorOutHandler(...) (0000ms, 1101ms total)
T02E8 001:105 JLINK_ExecCommand("Device = STM32F103VE", ...)
                JLINK_ExecCommand("map ram 0x20000000 - 0x2000FFFF", ...)  returns 0x00 (0000ms, 0000ms total)
                JLINK_AddMirrorAreaEx(Addr = 0x00000000, Size = 0x00000000) (0000ms, 0000ms total)
              Device "STM32F103VE" selected (512 KB flash, 64 KB RAM).  returns 0x00 (0009ms, 1101ms total)
T02E8 001:116 JLINK_ExecCommand("ProjectFile = "E:\RipZ\Projects\GitHub\STM32_CAR_MCU\APP\JLinkSettings.ini"", ...)  returns 0x00 (0001ms, 1110ms total)
T02E8 001:122 JLINK_ExecCommand("DisableConnectionTimeout", ...)  returns 0x00 (0000ms, 1111ms total)
T02E8 001:122 JLINK_TIF_Select(JLINKARM_TIF_JTAG)  returns 0x00 (0000ms, 1111ms total)
T02E8 001:122 JLINK_SetSpeed(2000) (0001ms, 1111ms total)
T02E8 001:123 JLINK_GetHardwareVersion()  returns 0x13880 (0000ms, 1112ms total)
T02E8 001:123 JLINK_GetDLLVersion()  returns 44003 (0000ms, 1112ms total)
T02E8 001:123 JLINK_GetFirmwareString(...) (0000ms, 1112ms total)
T02E8 001:139 JLINK_GetDLLVersion()  returns 44003 (0000ms, 1112ms total)
T02E8 001:139 JLINK_GetCompileDateTime() (0000ms, 1112ms total)
T02E8 001:145 JLINK_GetFirmwareString(...) (0000ms, 1112ms total)
T02E8 001:150 JLINK_GetHardwareVersion()  returns 0x13880 (0000ms, 1112ms total)
T02E8 001:171 JLINK_GetIdData(...) >0x2F8 JTAG>TotalIRLen = 9, IRPrint = 0x0011 >0x30 JTAG> >0x210 JTAG> >0x80 JTAG> >0x40 JTAG> >0x40 JTAG> >0x50 JTAG> >0x40 JTAG> >0x40 JTAG> >0x40 JTAG> >0x50 JTAG> >0x40 JTAG> >0x50 JTAG> >0x40 JTAG> >0x40 JTAG> >0x40 JTAG> >0x30 JTAG> >0x40 JTAG> >0x50 JTAG> >0x40 JTAG> >0x38 JTAG> >0x80 JTAG> >0x40 JTAG> >0x40 JTAG> >0x50 JTAG> >0x40 JTAG> >0x40 JTAG> >0x40 JTAG> >0x50 JTAG> >0x40 JTAG> >0x40 JTAG> >0x30 JTAG> >0x40 JTAG> >0x40 JTAG> >0x40 JTAG> >0x40 JTAG>
 >0x40 JTAG> >0x50 JTAG> >0x40 JTAG> >0x80 JTAG> >0x40 JTAG> >0x30 JTAG> >0x40 JTAG> >0x40 JTAG> >0x40 JTAG> >0x40 JTAG> >0x40 JTAG> >0x50 JTAG> >0x40 JTAG> >0x80 JTAG> >0x40 JTAG> >0x30 JTAG> >0x40 JTAG> >0x50 JTAG> >0x40 JTAG> >0x40 JTAG> >0x40 JTAG> >0x30 JTAG> >0x40 JTAG> >0x50 JTAG> >0x40 JTAG>Found Cortex-M3 r1p1, Little endian. >0x50 JTAG> >0x50 JTAG> >0x40 JTAG> >0x40 JTAG> >0x30 JTAG> >0x30 JTAG> >0x50 JTAG> >0x40 JTAG> >0x80 JTAG> >0x40 JTAG> >0x30 JTAG> >0x40 JTAG> >0x50 JTAG> >0x40 JTAG>
 >0x40 JTAG> >0x40 JTAG> >0x30 JTAG> >0x40 JTAG> >0x50 JTAG> >0x40 JTAG>TPIU fitted. >0x40 JTAG> >0x40 JTAG> >0x30 JTAG> >0x40 JTAG> >0x50 JTAG> >0x40 JTAG>ETM fitted. >0x40 JTAG> >0x40 JTAG> >0x30 JTAG> >0x40 JTAG> >0x50 JTAG> >0x40 JTAG> >0x40 JTAG> >0x40 JTAG> >0x30 JTAG> >0x40 JTAG> >0x50 JTAG> >0x40 JTAG>  FPUnit: 6 code (BP) slots and 2 literal slots >0x40 JTAG> >0x40 JTAG> >0x30 JTAG> >0x40 JTAG> >0x50 JTAG> >0x40 JTAG> >0x40 JTAG> >0x40 JTAG> >0x30 JTAG> >0x40 JTAG> >0x50 JTAG> >0x40 JTAG>
 ScanLen=9 NumDevices=2 aId[0]=0x3BA00477 aIrRead[0]=0 aScanLen[0]=0 aScanRead[0]=0 (0149ms, 1112ms total)
T02E8 001:320 JLINK_JTAG_GetDeviceID(DeviceIndex = 0)  returns 0x3BA00477 (0000ms, 1261ms total)
T02E8 001:320 JLINK_JTAG_GetDeviceInfo(DeviceIndex = 0)  returns 0x00 (0000ms, 1261ms total)
T02E8 001:320 JLINK_JTAG_GetDeviceID(DeviceIndex = 1)  returns 0x6414041 (0000ms, 1261ms total)
T02E8 001:320 JLINK_JTAG_GetDeviceInfo(DeviceIndex = 1)  returns 0x00 (0000ms, 1261ms total)
T02E8 001:320 JLINK_GetDebugInfo(0x100) -- Value=0xE00FF003  returns 0x00 (0001ms, 1261ms total)
T02E8 001:326 JLINK_ReadMem (0xE00FFFF0, 0x0010 Bytes, ...) -- CPU is running -- CPU_ReadMem(16 bytes @ 0xE00FFFF0) -- Data:  0D 00 00 00 10 00 00 00 05 00 00 00 B1 00 00 00  returns 0x00 (0005ms, 1262ms total)
T02E8 001:331 JLINK_ReadMem (0xE00FFFD0, 0x0020 Bytes, ...) -- CPU is running -- CPU_ReadMem(32 bytes @ 0xE00FFFD0) -- Data:  00 00 00 00 00 00 00 00 00 00 00 00 00 00 00 00 ...  returns 0x00 (0002ms, 1267ms total)
T02E8 001:333 JLINK_ReadMem (0xE00FF000, 0x0018 Bytes, ...) -- CPU is running -- CPU_ReadMem(24 bytes @ 0xE00FF000) -- Data:  03 F0 F0 FF 03 20 F0 FF 03 30 F0 FF 03 10 F0 FF ...  returns 0x00 (0002ms, 1269ms total)
T02E8 001:335 JLINK_ReadMemU32(0xE000ED00, 0x0001 Items, ...) -- CPU is running -- CPU_ReadMem(4 bytes @ 0xE000ED00) -- Data:  31 C2 1F 41  returns 0x01 (0001ms, 1271ms total)
T02E8 001:336 JLINK_SetResetType(JLINKARM_RESET_TYPE_NORMAL)  returns JLINKARM_RESET_TYPE_NORMAL (0000ms, 1272ms total)
T02E8 001:336 JLINK_Reset() >0x308 JTAG>TotalIRLen = 9, IRPrint = 0x0011 >0x30 JTAG> >0x210 JTAG> >0x80 JTAG> >0x40 JTAG> >0x40 JTAG> >0x50 JTAG> >0x40 JTAG> >0x40 JTAG> >0x40 JTAG> >0x50 JTAG> >0x40 JTAG> >0x50 JTAG> >0x40 JTAG> >0x40 JTAG> >0x40 JTAG> >0x30 JTAG> >0x40 JTAG> >0x50 JTAG> >0x40 JTAG> >0x38 JTAG> >0x80 JTAG> >0x40 JTAG> >0x40 JTAG> >0x50 JTAG> >0x40 JTAG> >0x40 JTAG> >0x40 JTAG> >0x50 JTAG> >0x40 JTAG> >0x40 JTAG> >0x30 JTAG> >0x40 JTAG> >0x40 JTAG> >0x40 JTAG> >0x40 JTAG> >0x40 JTAG>
 >0x50 JTAG> >0x40 JTAG> >0x80 JTAG> >0x40 JTAG> >0x30 JTAG> >0x40 JTAG> >0x40 JTAG> >0x40 JTAG> >0x40 JTAG> >0x40 JTAG> >0x50 JTAG> >0x40 JTAG> >0x80 JTAG> >0x40 JTAG> >0x30 JTAG> >0x40 JTAG> >0x50 JTAG> >0x40 JTAG> >0x40 JTAG> >0x40 JTAG> >0x30 JTAG> >0x40 JTAG> >0x50 JTAG> >0x40 JTAG>Found Cortex-M3 r1p1, Little endian. >0x50 JTAG> >0x50 JTAG> >0x40 JTAG> >0x40 JTAG> >0x30 JTAG> >0x30 JTAG> >0x50 JTAG> >0x40 JTAG> >0x80 JTAG> >0x40 JTAG> >0x30 JTAG> >0x40 JTAG> >0x50 JTAG> >0x40 JTAG> >0x40 JTAG>
 >0x40 JTAG> >0x30 JTAG> >0x40 JTAG> >0x50 JTAG> >0x40 JTAG>TPIU fitted. >0x40 JTAG> >0x40 JTAG> >0x30 JTAG> >0x40 JTAG> >0x50 JTAG> >0x40 JTAG>ETM fitted. >0x40 JTAG> >0x40 JTAG> >0x30 JTAG> >0x40 JTAG> >0x50 JTAG> >0x40 JTAG> >0x40 JTAG> >0x40 JTAG> >0x30 JTAG> >0x40 JTAG> >0x50 JTAG> >0x40 JTAG>  FPUnit: 6 code (BP) slots and 2 literal slots >0x40 JTAG> >0x40 JTAG> >0x30 JTAG> >0x40 JTAG> >0x50 JTAG> >0x40 JTAG> >0x40 JTAG> >0x40 JTAG> >0x30 JTAG> >0x40 JTAG> >0x50 JTAG> >0x40 JTAG> >0x48 JTAG>
 >0x80 JTAG> >0x40 JTAG> >0x40 JTAG> >0x50 JTAG> >0x40 JTAG> >0x40 JTAG> >0x40 JTAG> >0x50 JTAG> >0x40 JTAG> >0x40 JTAG> >0x30 JTAG> >0x40 JTAG> >0x40 JTAG> >0x40 JTAG> >0x40 JTAG> >0x40 JTAG> >0x50 JTAG> >0x40 JTAG> >0x80 JTAG> >0x40 JTAG> >0x30 JTAG> >0x40 JTAG> >0x40 JTAG> >0x40 JTAG> >0x40 JTAG> >0x40 JTAG> >0x50 JTAG> >0x40 JTAG> >0x80 JTAG> >0x40 JTAG> >0x30 JTAG> >0x40 JTAG> >0x50 JTAG> >0x40 JTAG> >0x40 JTAG> >0x40 JTAG> >0x30 JTAG> >0x40 JTAG> >0x50 JTAG> >0x40 JTAG>
Found Cortex-M3 r1p1, Little endian. >0x50 JTAG> >0x50 JTAG> >0x40 JTAG> >0x40 JTAG> >0x30 JTAG> >0x30 JTAG> >0x50 JTAG> >0x40 JTAG> >0x80 JTAG> >0x40 JTAG> >0x30 JTAG> >0x40 JTAG> >0x50 JTAG> >0x40 JTAG> >0x40 JTAG> >0x40 JTAG> >0x30 JTAG> >0x40 JTAG> >0x50 JTAG> >0x40 JTAG>TPIU fitted. >0x40 JTAG> >0x40 JTAG> >0x30 JTAG> >0x40 JTAG> >0x50 JTAG> >0x40 JTAG>ETM fitted. >0x40 JTAG> >0x40 JTAG> >0x30 JTAG> >0x40 JTAG> >0x50 JTAG> >0x40 JTAG> >0x40 JTAG> >0x40 JTAG> >0x30 JTAG> >0x40 JTAG> >0x50 JTAG>
 >0x40 JTAG>  FPUnit: 6 code (BP) slots and 2 literal slots >0x40 JTAG> >0x40 JTAG> >0x30 JTAG> >0x40 JTAG> >0x50 JTAG> >0x40 JTAG> >0x40 JTAG> >0x40 JTAG> >0x30 JTAG> >0x40 JTAG> >0x50 JTAG> >0x40 JTAG> -- CPU is running -- CPU_WriteMem(4 bytes @ 0xE000EDF0) -- CPU is running -- CPU_WriteMem(4 bytes @ 0xE000EDFC) -- CPU is running -- CPU_WriteMem(4 bytes @ 0xE000ED0C) -- CPU is running -- CPU_ReadMem(4 bytes @ 0xE000EDF0) -- CPU is running -- CPU_ReadMem(4 bytes @ 0xE000EDF0) -- CPU is running
 -- CPU_WriteMem(4 bytes @ 0xE000EDF0) -- CPU is running -- CPU_WriteMem(4 bytes @ 0xE000EDFC) -- CPU is running -- CPU_ReadMem(4 bytes @ 0xE000EDF0) >0x90 JTAG> >0x40 JTAG> >0x30 JTAG> >0x40 JTAG> >0x50 JTAG> >0x40 JTAG> -- CPU_WriteMem(4 bytes @ 0xE000EDFC) -- CPU_WriteMem(4 bytes @ 0xE0001028) -- CPU_WriteMem(4 bytes @ 0xE0001038) -- CPU_WriteMem(4 bytes @ 0xE0001048) -- CPU_WriteMem(4 bytes @ 0xE0001058) (0290ms, 1272ms total)
T02E8 001:626 JLINK_Halt()  returns 0x00 (0000ms, 1562ms total)
T02E8 001:626 JLINK_IsHalted()  returns TRUE (0000ms, 1562ms total)
T02E8 001:626 JLINK_ReadMemU32(0xE000EDF0, 0x0001 Items, ...) -- CPU_ReadMem(4 bytes @ 0xE000EDF0) -- Data:  03 00 03 00  returns 0x01 (0002ms, 1562ms total)
T02E8 001:628 JLINK_WriteU32(0xE000EDF0, 0xA05F0003) -- CPU_WriteMem(4 bytes @ 0xE000EDF0)  returns 0x00 (0001ms, 1564ms total)
T02E8 001:629 JLINK_WriteU32(0xE000EDFC, 0x01000000) -- CPU_WriteMem(4 bytes @ 0xE000EDFC)  returns 0x00 (0001ms, 1565ms total)
T02E8 001:644 JLINK_GetHWStatus(...)  returns 0x00 (0001ms, 1566ms total)
T02E8 001:657 JLINK_GetNumBPUnits(Type = 0xFFFFFF00)  returns 0x06 (0000ms, 1567ms total)
T02E8 001:657 JLINK_GetNumBPUnits(Type = 0xF0)  returns 0x2000 (0000ms, 1567ms total)
T02E8 001:657 JLINK_GetNumWPUnits()  returns 0x04 (0000ms, 1567ms total)
T02E8 001:669 JLINK_GetSpeed()  returns 0x7D0 (0000ms, 1567ms total)
T02E8 001:676 JLINK_ReadMemU32(0xE000E004, 0x0001 Items, ...) -- CPU_ReadMem(4 bytes @ 0xE000E004) -- Data:  01 00 00 00  returns 0x01 (0002ms, 1567ms total)
T02E8 001:678 JLINK_ReadMemU32(0xE000E004, 0x0001 Items, ...) -- CPU_ReadMem(4 bytes @ 0xE000E004) -- Data:  01 00 00 00  returns 0x01 (0001ms, 1569ms total)
T02E8 001:679 JLINK_WriteMem(0xE0001000, 0x001C Bytes, ...) -- Data:  01 00 00 00 00 00 00 00 00 00 00 00 00 00 00 00 ... -- CPU_WriteMem(28 bytes @ 0xE0001000)  returns 0x1C (0002ms, 1570ms total)
T02E8 001:681 JLINK_ReadMem (0xE0001000, 0x001C Bytes, ...) -- CPU_ReadMem(28 bytes @ 0xE0001000) -- Data:  01 00 00 40 00 00 00 00 00 00 00 00 00 00 00 00 ...  returns 0x00 (0002ms, 1572ms total)
T02E8 001:683 JLINK_Halt()  returns 0x00 (0000ms, 1574ms total)
T02E8 001:683 JLINK_IsHalted()  returns TRUE (0000ms, 1574ms total)
T02E8 001:687 JLINK_WriteMem(0x20000000, 0x0164 Bytes, ...) -- Data:  00 BE 0A E0 0D 78 2D 06 68 40 08 24 40 00 00 D3 ... -- CPU_WriteMem(356 bytes @ 0x20000000)  returns 0x164 (0004ms, 1574ms total)
T02E8 001:691 JLINK_WriteReg(R0, 0x08000000)  returns 0x00 (0000ms, 1578ms total)
T02E8 001:691 JLINK_WriteReg(R1, 0x007A1200)  returns 0x00 (0000ms, 1578ms total)
T02E8 001:691 JLINK_WriteReg(R2, 0x00000001)  returns 0x00 (0000ms, 1578ms total)
T02E8 001:691 JLINK_WriteReg(R3, 0x00000000)  returns 0x00 (0000ms, 1578ms total)
T02E8 001:691 JLINK_WriteReg(R4, 0x00000000)  returns 0x00 (0000ms, 1578ms total)
T02E8 001:691 JLINK_WriteReg(R5, 0x00000000)  returns 0x00 (0000ms, 1578ms total)
T02E8 001:691 JLINK_WriteReg(R6, 0x00000000)  returns 0x00 (0000ms, 1578ms total)
T02E8 001:691 JLINK_WriteReg(R7, 0x00000000)  returns 0x00 (0000ms, 1578ms total)
T02E8 001:691 JLINK_WriteReg(R8, 0x00000000)  returns 0x00 (0000ms, 1578ms total)
T02E8 001:691 JLINK_WriteReg(R9, 0x20000160)  returns 0x00 (0000ms, 1578ms total)
T02E8 001:691 JLINK_WriteReg(R10, 0x00000000)  returns 0x00 (0000ms, 1578ms total)
T02E8 001:691 JLINK_WriteReg(R11, 0x00000000)  returns 0x00 (0000ms, 1578ms total)
T02E8 001:691 JLINK_WriteReg(R12, 0x00000000)  returns 0x00 (0000ms, 1578ms total)
T02E8 001:691 JLINK_WriteReg(R13, 0x20000800)  returns 0x00 (0000ms, 1578ms total)
T02E8 001:691 JLINK_WriteReg(R14, 0x20000001)  returns 0x00 (0000ms, 1578ms total)
T02E8 001:691 JLINK_WriteReg(R15, 0x20000038)  returns 0x00 (0000ms, 1578ms total)
T02E8 001:691 JLINK_WriteReg(XPSR, 0x01000000)  returns 0x00 (0000ms, 1578ms total)
T02E8 001:691 JLINK_WriteReg(MSP, 0x20000800)  returns 0x00 (0000ms, 1578ms total)
T02E8 001:691 JLINK_WriteReg(PSP, 0x20000800)  returns 0x00 (0001ms, 1578ms total)
T02E8 001:692 JLINK_WriteReg(CFBP, 0x00000000)  returns 0x00 (0000ms, 1579ms total)
T02E8 001:692 JLINK_SetBPEx(Addr = 0x20000000, Type = 0xFFFFFFF2) -- CPU_ReadMem(2 bytes @ 0x20000000)  returns 0x00000001 (0001ms, 1579ms total)
T02E8 001:693 JLINK_Go() -- CPU_WriteMem(2 bytes @ 0x20000000) -- CPU_WriteMem(4 bytes @ 0xE0002008) -- CPU_WriteMem(4 bytes @ 0xE000200C) -- CPU_WriteMem(4 bytes @ 0xE0002010) -- CPU_WriteMem(4 bytes @ 0xE0002014) -- CPU_WriteMem(4 bytes @ 0xE0002018) -- CPU_WriteMem(4 bytes @ 0xE000201C) (0011ms, 1580ms total)
T02E8 001:704 JLINK_IsHalted() -- CPU_ReadMem(2 bytes @ 0x20000000)  returns TRUE (0007ms, 1591ms total)
T02E8 001:711 JLINK_ReadReg(R15)  returns 0x20000000 (0000ms, 1591ms total)
T02E8 001:711 JLINK_ClrBPEx(BPHandle = 0x00000001)  returns 0x00 (0000ms, 1591ms total)
T02E8 001:711 JLINK_ReadReg(R0)  returns 0x00000000 (0000ms, 1591ms total)
T02E8 001:712 JLINK_WriteReg(R0, 0x08000000)  returns 0x00 (0000ms, 1591ms total)
T02E8 001:712 JLINK_WriteReg(R1, 0x007A1200)  returns 0x00 (0000ms, 1591ms total)
T02E8 001:712 JLINK_WriteReg(R2, 0x00000001)  returns 0x00 (0000ms, 1591ms total)
T02E8 001:712 JLINK_WriteReg(R3, 0x00000000)  returns 0x00 (0000ms, 1591ms total)
T02E8 001:712 JLINK_WriteReg(R4, 0x00000000)  returns 0x00 (0000ms, 1591ms total)
T02E8 001:712 JLINK_WriteReg(R5, 0x00000000)  returns 0x00 (0000ms, 1591ms total)
T02E8 001:712 JLINK_WriteReg(R6, 0x00000000)  returns 0x00 (0000ms, 1591ms total)
T02E8 001:712 JLINK_WriteReg(R7, 0x00000000)  returns 0x00 (0000ms, 1591ms total)
T02E8 001:712 JLINK_WriteReg(R8, 0x00000000)  returns 0x00 (0000ms, 1591ms total)
T02E8 001:712 JLINK_WriteReg(R9, 0x20000160)  returns 0x00 (0002ms, 1591ms total)
T02E8 001:714 JLINK_WriteReg(R10, 0x00000000)  returns 0x00 (0000ms, 1593ms total)
T02E8 001:714 JLINK_WriteReg(R11, 0x00000000)  returns 0x00 (0000ms, 1593ms total)
T02E8 001:714 JLINK_WriteReg(R12, 0x00000000)  returns 0x00 (0000ms, 1593ms total)
T02E8 001:714 JLINK_WriteReg(R13, 0x20000800)  returns 0x00 (0000ms, 1593ms total)
T02E8 001:714 JLINK_WriteReg(R14, 0x20000001)  returns 0x00 (0000ms, 1593ms total)
T02E8 001:714 JLINK_WriteReg(R15, 0x2000007C)  returns 0x00 (0000ms, 1593ms total)
T02E8 001:714 JLINK_WriteReg(XPSR, 0x01000000)  returns 0x00 (0000ms, 1593ms total)
T02E8 001:714 JLINK_WriteReg(MSP, 0x20000800)  returns 0x00 (0000ms, 1593ms total)
T02E8 001:714 JLINK_WriteReg(PSP, 0x20000800)  returns 0x00 (0000ms, 1593ms total)
T02E8 001:714 JLINK_WriteReg(CFBP, 0x00000000)  returns 0x00 (0000ms, 1593ms total)
T02E8 001:714 JLINK_SetBPEx(Addr = 0x20000000, Type = 0xFFFFFFF2)  returns 0x00000002 (0000ms, 1593ms total)
T02E8 001:714 JLINK_Go() -- CPU_WriteMem(4 bytes @ 0xE0002008) -- CPU_WriteMem(4 bytes @ 0xE000200C) -- CPU_WriteMem(4 bytes @ 0xE0002010) -- CPU_WriteMem(4 bytes @ 0xE0002014) -- CPU_WriteMem(4 bytes @ 0xE0002018) -- CPU_WriteMem(4 bytes @ 0xE000201C) (0009ms, 1593ms total)
T02E8 001:723 JLINK_IsHalted()  returns FALSE (0002ms, 1602ms total)
T02E8 001:776 JLINK_IsHalted() -- CPU_ReadMem(2 bytes @ 0x20000000)  returns TRUE (0007ms, 1602ms total)
T02E8 001:783 JLINK_ReadReg(R15)  returns 0x20000000 (0000ms, 1602ms total)
T02E8 001:783 JLINK_ClrBPEx(BPHandle = 0x00000002)  returns 0x00 (0000ms, 1602ms total)
T02E8 001:783 JLINK_ReadReg(R0)  returns 0x00000000 (0000ms, 1602ms total)
T02E8 001:835 JLINK_WriteReg(R0, 0x00000001)  returns 0x00 (0000ms, 1602ms total)
T02E8 001:835 JLINK_WriteReg(R1, 0x007A1200)  returns 0x00 (0000ms, 1602ms total)
T02E8 001:835 JLINK_WriteReg(R2, 0x00000001)  returns 0x00 (0000ms, 1602ms total)
T02E8 001:835 JLINK_WriteReg(R3, 0x00000000)  returns 0x00 (0000ms, 1602ms total)
T02E8 001:835 JLINK_WriteReg(R4, 0x00000000)  returns 0x00 (0000ms, 1602ms total)
T02E8 001:835 JLINK_WriteReg(R5, 0x00000000)  returns 0x00 (0000ms, 1602ms total)
T02E8 001:835 JLINK_WriteReg(R6, 0x00000000)  returns 0x00 (0000ms, 1602ms total)
T02E8 001:835 JLINK_WriteReg(R7, 0x00000000)  returns 0x00 (0000ms, 1602ms total)
T02E8 001:835 JLINK_WriteReg(R8, 0x00000000)  returns 0x00 (0000ms, 1602ms total)
T02E8 001:835 JLINK_WriteReg(R9, 0x20000160)  returns 0x00 (0000ms, 1602ms total)
T02E8 001:835 JLINK_WriteReg(R10, 0x00000000)  returns 0x00 (0000ms, 1602ms total)
T02E8 001:835 JLINK_WriteReg(R11, 0x00000000)  returns 0x00 (0000ms, 1602ms total)
T02E8 001:835 JLINK_WriteReg(R12, 0x00000000)  returns 0x00 (0000ms, 1602ms total)
T02E8 001:835 JLINK_WriteReg(R13, 0x20000800)  returns 0x00 (0000ms, 1602ms total)
T02E8 001:835 JLINK_WriteReg(R14, 0x20000001)  returns 0x00 (0000ms, 1602ms total)
T02E8 001:835 JLINK_WriteReg(R15, 0x2000006A)  returns 0x00 (0000ms, 1602ms total)
T02E8 001:835 JLINK_WriteReg(XPSR, 0x01000000)  returns 0x00 (0000ms, 1602ms total)
T02E8 001:835 JLINK_WriteReg(MSP, 0x20000800)  returns 0x00 (0000ms, 1602ms total)
T02E8 001:835 JLINK_WriteReg(PSP, 0x20000800)  returns 0x00 (0000ms, 1602ms total)
T02E8 001:835 JLINK_WriteReg(CFBP, 0x00000000)  returns 0x00 (0000ms, 1602ms total)
T02E8 001:835 JLINK_SetBPEx(Addr = 0x20000000, Type = 0xFFFFFFF2)  returns 0x00000003 (0001ms, 1602ms total)
T02E8 001:836 JLINK_Go() -- CPU_WriteMem(4 bytes @ 0xE0002008) -- CPU_WriteMem(4 bytes @ 0xE000200C) -- CPU_WriteMem(4 bytes @ 0xE0002010) -- CPU_WriteMem(4 bytes @ 0xE0002014) -- CPU_WriteMem(4 bytes @ 0xE0002018) -- CPU_WriteMem(4 bytes @ 0xE000201C) (0009ms, 1603ms total)
T02E8 001:845 JLINK_IsHalted() -- CPU_ReadMem(2 bytes @ 0x20000000)  returns TRUE (0007ms, 1612ms total)
T02E8 001:852 JLINK_ReadReg(R15)  returns 0x20000000 (0000ms, 1612ms total)
T02E8 001:852 JLINK_ClrBPEx(BPHandle = 0x00000003)  returns 0x00 (0000ms, 1612ms total)
T02E8 001:852 JLINK_ReadReg(R0)  returns 0x00000000 (0000ms, 1612ms total)
T02E8 001:860 JLINK_WriteMem(0x20000000, 0x0164 Bytes, ...) -- Data:  00 BE 0A E0 0D 78 2D 06 68 40 08 24 40 00 00 D3 ... -- CPU_WriteMem(356 bytes @ 0x20000000)  returns 0x164 (0004ms, 1612ms total)
T02E8 001:864 JLINK_WriteReg(R0, 0x08000000)  returns 0x00 (0000ms, 1616ms total)
T02E8 001:864 JLINK_WriteReg(R1, 0x007A1200)  returns 0x00 (0000ms, 1616ms total)
T02E8 001:864 JLINK_WriteReg(R2, 0x00000002)  returns 0x00 (0000ms, 1616ms total)
T02E8 001:864 JLINK_WriteReg(R3, 0x00000000)  returns 0x00 (0000ms, 1616ms total)
T02E8 001:864 JLINK_WriteReg(R4, 0x00000000)  returns 0x00 (0000ms, 1616ms total)
T02E8 001:864 JLINK_WriteReg(R5, 0x00000000)  returns 0x00 (0000ms, 1616ms total)
T02E8 001:864 JLINK_WriteReg(R6, 0x00000000)  returns 0x00 (0000ms, 1616ms total)
T02E8 001:864 JLINK_WriteReg(R7, 0x00000000)  returns 0x00 (0000ms, 1616ms total)
T02E8 001:864 JLINK_WriteReg(R8, 0x00000000)  returns 0x00 (0000ms, 1616ms total)
T02E8 001:864 JLINK_WriteReg(R9, 0x20000160)  returns 0x00 (0000ms, 1616ms total)
T02E8 001:864 JLINK_WriteReg(R10, 0x00000000)  returns 0x00 (0000ms, 1616ms total)
T02E8 001:864 JLINK_WriteReg(R11, 0x00000000)  returns 0x00 (0000ms, 1616ms total)
T02E8 001:864 JLINK_WriteReg(R12, 0x00000000)  returns 0x00 (0000ms, 1616ms total)
T02E8 001:864 JLINK_WriteReg(R13, 0x20000800)  returns 0x00 (0000ms, 1616ms total)
T02E8 001:864 JLINK_WriteReg(R14, 0x20000001)  returns 0x00 (0000ms, 1616ms total)
T02E8 001:864 JLINK_WriteReg(R15, 0x20000038)  returns 0x00 (0000ms, 1616ms total)
T02E8 001:864 JLINK_WriteReg(XPSR, 0x01000000)  returns 0x00 (0001ms, 1616ms total)
T02E8 001:865 JLINK_WriteReg(MSP, 0x20000800)  returns 0x00 (0000ms, 1617ms total)
T02E8 001:865 JLINK_WriteReg(PSP, 0x20000800)  returns 0x00 (0000ms, 1617ms total)
T02E8 001:865 JLINK_WriteReg(CFBP, 0x00000000)  returns 0x00 (0000ms, 1617ms total)
T02E8 001:865 JLINK_SetBPEx(Addr = 0x20000000, Type = 0xFFFFFFF2) -- CPU_ReadMem(2 bytes @ 0x20000000)  returns 0x00000004 (0001ms, 1617ms total)
T02E8 001:866 JLINK_Go() -- CPU_WriteMem(2 bytes @ 0x20000000) -- CPU_WriteMem(4 bytes @ 0xE0002008) -- CPU_WriteMem(4 bytes @ 0xE000200C) -- CPU_WriteMem(4 bytes @ 0xE0002010) -- CPU_WriteMem(4 bytes @ 0xE0002014) -- CPU_WriteMem(4 bytes @ 0xE0002018) -- CPU_WriteMem(4 bytes @ 0xE000201C) (0010ms, 1618ms total)
T02E8 001:876 JLINK_IsHalted() -- CPU_ReadMem(2 bytes @ 0x20000000)  returns TRUE (0007ms, 1628ms total)
T02E8 001:883 JLINK_ReadReg(R15)  returns 0x20000000 (0000ms, 1628ms total)
T02E8 001:883 JLINK_ClrBPEx(BPHandle = 0x00000004)  returns 0x00 (0000ms, 1628ms total)
T02E8 001:883 JLINK_ReadReg(R0)  returns 0x00000000 (0000ms, 1628ms total)
T02E8 001:883 JLINK_WriteMem(0x20000164, 0x0400 Bytes, ...) -- Data:  B0 4B 00 20 01 01 00 08 05 01 00 08 07 01 00 08 ... -- CPU_WriteMem(1024 bytes @ 0x20000164)  returns 0x400 (0008ms, 1628ms total)
T02E8 001:891 JLINK_WriteReg(R0, 0x08000000)  returns 0x00 (0000ms, 1636ms total)
T02E8 001:891 JLINK_WriteReg(R1, 0x00000400)  returns 0x00 (0000ms, 1636ms total)
T02E8 001:891 JLINK_WriteReg(R2, 0x20000164)  returns 0x00 (0000ms, 1636ms total)
T02E8 001:891 JLINK_WriteReg(R3, 0x00000000)  returns 0x00 (0000ms, 1636ms total)
T02E8 001:891 JLINK_WriteReg(R4, 0x00000000)  returns 0x00 (0000ms, 1636ms total)
T02E8 001:891 JLINK_WriteReg(R5, 0x00000000)  returns 0x00 (0000ms, 1636ms total)
T02E8 001:891 JLINK_WriteReg(R6, 0x00000000)  returns 0x00 (0000ms, 1636ms total)
T02E8 001:891 JLINK_WriteReg(R7, 0x00000000)  returns 0x00 (0000ms, 1636ms total)
T02E8 001:891 JLINK_WriteReg(R8, 0x00000000)  returns 0x00 (0000ms, 1636ms total)
T02E8 001:891 JLINK_WriteReg(R9, 0x20000160)  returns 0x00 (0000ms, 1636ms total)
T02E8 001:891 JLINK_WriteReg(R10, 0x00000000)  returns 0x00 (0000ms, 1636ms total)
T02E8 001:891 JLINK_WriteReg(R11, 0x00000000)  returns 0x00 (0000ms, 1636ms total)
T02E8 001:891 JLINK_WriteReg(R12, 0x00000000)  returns 0x00 (0000ms, 1636ms total)
T02E8 001:891 JLINK_WriteReg(R13, 0x20000800)  returns 0x00 (0000ms, 1636ms total)
T02E8 001:891 JLINK_WriteReg(R14, 0x20000001)  returns 0x00 (0000ms, 1636ms total)
T02E8 001:891 JLINK_WriteReg(R15, 0x200000F4)  returns 0x00 (0000ms, 1636ms total)
T02E8 001:891 JLINK_WriteReg(XPSR, 0x01000000)  returns 0x00 (0000ms, 1636ms total)
T02E8 001:891 JLINK_WriteReg(MSP, 0x20000800)  returns 0x00 (0000ms, 1636ms total)
T02E8 001:891 JLINK_WriteReg(PSP, 0x20000800)  returns 0x00 (0000ms, 1636ms total)
T02E8 001:891 JLINK_WriteReg(CFBP, 0x00000000)  returns 0x00 (0000ms, 1636ms total)
T02E8 001:891 JLINK_SetBPEx(Addr = 0x20000000, Type = 0xFFFFFFF2)  returns 0x00000005 (0000ms, 1636ms total)
T02E8 001:892 JLINK_Go() -- CPU_WriteMem(4 bytes @ 0xE0002008) -- CPU_WriteMem(4 bytes @ 0xE000200C) -- CPU_WriteMem(4 bytes @ 0xE0002010) -- CPU_WriteMem(4 bytes @ 0xE0002014) -- CPU_WriteMem(4 bytes @ 0xE0002018) -- CPU_WriteMem(4 bytes @ 0xE000201C) (0009ms, 1637ms total)
T02E8 001:901 JLINK_IsHalted()  returns FALSE (0001ms, 1646ms total)
T02E8 001:953 JLINK_IsHalted() -- CPU_ReadMem(2 bytes @ 0x20000000)  returns TRUE (0007ms, 1646ms total)
T02E8 001:960 JLINK_ReadReg(R15)  returns 0x20000000 (0000ms, 1646ms total)
T02E8 001:960 JLINK_ClrBPEx(BPHandle = 0x00000005)  returns 0x00 (0000ms, 1646ms total)
T02E8 001:960 JLINK_ReadReg(R0)  returns 0x00000000 (0000ms, 1646ms total)
T02E8 001:961 JLINK_WriteMem(0x20000164, 0x0400 Bytes, ...) -- Data:  58 20 A9 19 52 68 90 47 76 1C A6 42 EE DD BD E8 ... -- CPU_WriteMem(1024 bytes @ 0x20000164)  returns 0x400 (0007ms, 1646ms total)
T02E8 001:968 JLINK_WriteReg(R0, 0x08000400)  returns 0x00 (0000ms, 1653ms total)
T02E8 001:968 JLINK_WriteReg(R1, 0x00000400)  returns 0x00 (0000ms, 1653ms total)
T02E8 001:968 JLINK_WriteReg(R2, 0x20000164)  returns 0x00 (0000ms, 1653ms total)
T02E8 001:968 JLINK_WriteReg(R3, 0x00000000)  returns 0x00 (0000ms, 1653ms total)
T02E8 001:968 JLINK_WriteReg(R4, 0x00000000)  returns 0x00 (0000ms, 1653ms total)
T02E8 001:968 JLINK_WriteReg(R5, 0x00000000)  returns 0x00 (0000ms, 1653ms total)
T02E8 001:968 JLINK_WriteReg(R6, 0x00000000)  returns 0x00 (0000ms, 1653ms total)
T02E8 001:968 JLINK_WriteReg(R7, 0x00000000)  returns 0x00 (0000ms, 1653ms total)
T02E8 001:968 JLINK_WriteReg(R8, 0x00000000)  returns 0x00 (0000ms, 1653ms total)
T02E8 001:968 JLINK_WriteReg(R9, 0x20000160)  returns 0x00 (0000ms, 1653ms total)
T02E8 001:968 JLINK_WriteReg(R10, 0x00000000)  returns 0x00 (0000ms, 1653ms total)
T02E8 001:968 JLINK_WriteReg(R11, 0x00000000)  returns 0x00 (0000ms, 1653ms total)
T02E8 001:968 JLINK_WriteReg(R12, 0x00000000)  returns 0x00 (0000ms, 1653ms total)
T02E8 001:968 JLINK_WriteReg(R13, 0x20000800)  returns 0x00 (0000ms, 1653ms total)
T02E8 001:968 JLINK_WriteReg(R14, 0x20000001)  returns 0x00 (0000ms, 1653ms total)
T02E8 001:968 JLINK_WriteReg(R15, 0x200000F4)  returns 0x00 (0000ms, 1653ms total)
T02E8 001:968 JLINK_WriteReg(XPSR, 0x01000000)  returns 0x00 (0000ms, 1653ms total)
T02E8 001:968 JLINK_WriteReg(MSP, 0x20000800)  returns 0x00 (0000ms, 1653ms total)
T02E8 001:968 JLINK_WriteReg(PSP, 0x20000800)  returns 0x00 (0000ms, 1653ms total)
T02E8 001:968 JLINK_WriteReg(CFBP, 0x00000000)  returns 0x00 (0001ms, 1653ms total)
T02E8 001:969 JLINK_SetBPEx(Addr = 0x20000000, Type = 0xFFFFFFF2)  returns 0x00000006 (0000ms, 1654ms total)
T02E8 001:969 JLINK_Go() -- CPU_WriteMem(4 bytes @ 0xE0002008) -- CPU_WriteMem(4 bytes @ 0xE000200C) -- CPU_WriteMem(4 bytes @ 0xE0002010) -- CPU_WriteMem(4 bytes @ 0xE0002014) -- CPU_WriteMem(4 bytes @ 0xE0002018) -- CPU_WriteMem(4 bytes @ 0xE000201C) (0009ms, 1654ms total)
T02E8 001:978 JLINK_IsHalted()  returns FALSE (0001ms, 1663ms total)
T02E8 002:030 JLINK_IsHalted() -- CPU_ReadMem(2 bytes @ 0x20000000)  returns TRUE (0007ms, 1663ms total)
T02E8 002:037 JLINK_ReadReg(R15)  returns 0x20000000 (0000ms, 1663ms total)
T02E8 002:037 JLINK_ClrBPEx(BPHandle = 0x00000006)  returns 0x00 (0000ms, 1663ms total)
T02E8 002:037 JLINK_ReadReg(R0)  returns 0x00000000 (0000ms, 1663ms total)
T02E8 002:038 JLINK_WriteMem(0x20000164, 0x0400 Bytes, ...) -- Data:  04 DD 0B 46 01 46 18 46 42 F0 04 02 89 02 00 EB ... -- CPU_WriteMem(1024 bytes @ 0x20000164)  returns 0x400 (0007ms, 1663ms total)
T02E8 002:045 JLINK_WriteReg(R0, 0x08000800)  returns 0x00 (0000ms, 1670ms total)
T02E8 002:045 JLINK_WriteReg(R1, 0x00000400)  returns 0x00 (0000ms, 1670ms total)
T02E8 002:045 JLINK_WriteReg(R2, 0x20000164)  returns 0x00 (0000ms, 1670ms total)
T02E8 002:045 JLINK_WriteReg(R3, 0x00000000)  returns 0x00 (0000ms, 1670ms total)
T02E8 002:045 JLINK_WriteReg(R4, 0x00000000)  returns 0x00 (0000ms, 1670ms total)
T02E8 002:045 JLINK_WriteReg(R5, 0x00000000)  returns 0x00 (0000ms, 1670ms total)
T02E8 002:045 JLINK_WriteReg(R6, 0x00000000)  returns 0x00 (0000ms, 1670ms total)
T02E8 002:045 JLINK_WriteReg(R7, 0x00000000)  returns 0x00 (0000ms, 1670ms total)
T02E8 002:045 JLINK_WriteReg(R8, 0x00000000)  returns 0x00 (0000ms, 1670ms total)
T02E8 002:045 JLINK_WriteReg(R9, 0x20000160)  returns 0x00 (0000ms, 1670ms total)
T02E8 002:045 JLINK_WriteReg(R10, 0x00000000)  returns 0x00 (0000ms, 1670ms total)
T02E8 002:045 JLINK_WriteReg(R11, 0x00000000)  returns 0x00 (0000ms, 1670ms total)
T02E8 002:045 JLINK_WriteReg(R12, 0x00000000)  returns 0x00 (0000ms, 1670ms total)
T02E8 002:045 JLINK_WriteReg(R13, 0x20000800)  returns 0x00 (0000ms, 1670ms total)
T02E8 002:045 JLINK_WriteReg(R14, 0x20000001)  returns 0x00 (0000ms, 1670ms total)
T02E8 002:045 JLINK_WriteReg(R15, 0x200000F4)  returns 0x00 (0000ms, 1670ms total)
T02E8 002:045 JLINK_WriteReg(XPSR, 0x01000000)  returns 0x00 (0000ms, 1670ms total)
T02E8 002:045 JLINK_WriteReg(MSP, 0x20000800)  returns 0x00 (0000ms, 1670ms total)
T02E8 002:045 JLINK_WriteReg(PSP, 0x20000800)  returns 0x00 (0000ms, 1670ms total)
T02E8 002:045 JLINK_WriteReg(CFBP, 0x00000000)  returns 0x00 (0000ms, 1670ms total)
T02E8 002:045 JLINK_SetBPEx(Addr = 0x20000000, Type = 0xFFFFFFF2)  returns 0x00000007 (0000ms, 1670ms total)
T02E8 002:045 JLINK_Go() -- CPU_WriteMem(4 bytes @ 0xE0002008) -- CPU_WriteMem(4 bytes @ 0xE000200C) -- CPU_WriteMem(4 bytes @ 0xE0002010) -- CPU_WriteMem(4 bytes @ 0xE0002014) -- CPU_WriteMem(4 bytes @ 0xE0002018) -- CPU_WriteMem(4 bytes @ 0xE000201C) (0010ms, 1670ms total)
T02E8 002:055 JLINK_IsHalted()  returns FALSE (0001ms, 1680ms total)
T02E8 002:107 JLINK_IsHalted() -- CPU_ReadMem(2 bytes @ 0x20000000)  returns TRUE (0007ms, 1680ms total)
T02E8 002:114 JLINK_ReadReg(R15)  returns 0x20000000 (0000ms, 1680ms total)
T02E8 002:114 JLINK_ClrBPEx(BPHandle = 0x00000007)  returns 0x00 (0000ms, 1680ms total)
T02E8 002:114 JLINK_ReadReg(R0)  returns 0x00000000 (0000ms, 1680ms total)
T02E8 002:115 JLINK_WriteMem(0x20000164, 0x0400 Bytes, ...) -- Data:  B2 F9 04 20 82 42 01 DB 07 F0 23 B8 00 20 70 47 ... -- CPU_WriteMem(1024 bytes @ 0x20000164)  returns 0x400 (0007ms, 1680ms total)
T02E8 002:122 JLINK_WriteReg(R0, 0x08000C00)  returns 0x00 (0000ms, 1687ms total)
T02E8 002:122 JLINK_WriteReg(R1, 0x00000400)  returns 0x00 (0000ms, 1687ms total)
T02E8 002:122 JLINK_WriteReg(R2, 0x20000164)  returns 0x00 (0000ms, 1687ms total)
T02E8 002:122 JLINK_WriteReg(R3, 0x00000000)  returns 0x00 (0000ms, 1687ms total)
T02E8 002:122 JLINK_WriteReg(R4, 0x00000000)  returns 0x00 (0000ms, 1687ms total)
T02E8 002:122 JLINK_WriteReg(R5, 0x00000000)  returns 0x00 (0000ms, 1687ms total)
T02E8 002:122 JLINK_WriteReg(R6, 0x00000000)  returns 0x00 (0000ms, 1687ms total)
T02E8 002:122 JLINK_WriteReg(R7, 0x00000000)  returns 0x00 (0000ms, 1687ms total)
T02E8 002:122 JLINK_WriteReg(R8, 0x00000000)  returns 0x00 (0000ms, 1687ms total)
T02E8 002:122 JLINK_WriteReg(R9, 0x20000160)  returns 0x00 (0000ms, 1687ms total)
T02E8 002:122 JLINK_WriteReg(R10, 0x00000000)  returns 0x00 (0000ms, 1687ms total)
T02E8 002:122 JLINK_WriteReg(R11, 0x00000000)  returns 0x00 (0000ms, 1687ms total)
T02E8 002:122 JLINK_WriteReg(R12, 0x00000000)  returns 0x00 (0000ms, 1687ms total)
T02E8 002:122 JLINK_WriteReg(R13, 0x20000800)  returns 0x00 (0000ms, 1687ms total)
T02E8 002:122 JLINK_WriteReg(R14, 0x20000001)  returns 0x00 (0000ms, 1687ms total)
T02E8 002:122 JLINK_WriteReg(R15, 0x200000F4)  returns 0x00 (0000ms, 1687ms total)
T02E8 002:122 JLINK_WriteReg(XPSR, 0x01000000)  returns 0x00 (0000ms, 1687ms total)
T02E8 002:122 JLINK_WriteReg(MSP, 0x20000800)  returns 0x00 (0000ms, 1687ms total)
T02E8 002:122 JLINK_WriteReg(PSP, 0x20000800)  returns 0x00 (0000ms, 1687ms total)
T02E8 002:122 JLINK_WriteReg(CFBP, 0x00000000)  returns 0x00 (0001ms, 1687ms total)
T02E8 002:123 JLINK_SetBPEx(Addr = 0x20000000, Type = 0xFFFFFFF2)  returns 0x00000008 (0000ms, 1688ms total)
T02E8 002:123 JLINK_Go() -- CPU_WriteMem(4 bytes @ 0xE0002008) -- CPU_WriteMem(4 bytes @ 0xE000200C) -- CPU_WriteMem(4 bytes @ 0xE0002010) -- CPU_WriteMem(4 bytes @ 0xE0002014) -- CPU_WriteMem(4 bytes @ 0xE0002018) -- CPU_WriteMem(4 bytes @ 0xE000201C) (0009ms, 1688ms total)
T02E8 002:133 JLINK_IsHalted()  returns FALSE (0001ms, 1697ms total)
T02E8 002:185 JLINK_IsHalted() -- CPU_ReadMem(2 bytes @ 0x20000000)  returns TRUE (0007ms, 1697ms total)
T02E8 002:192 JLINK_ReadReg(R15)  returns 0x20000000 (0000ms, 1697ms total)
T02E8 002:192 JLINK_ClrBPEx(BPHandle = 0x00000008)  returns 0x00 (0000ms, 1697ms total)
T02E8 002:192 JLINK_ReadReg(R0)  returns 0x00000000 (0000ms, 1697ms total)
T02E8 002:193 JLINK_WriteMem(0x20000164, 0x0400 Bytes, ...) -- Data:  B0 F9 00 20 A2 46 8F 1A B0 F9 06 10 B0 F9 02 20 ... -- CPU_WriteMem(1024 bytes @ 0x20000164)  returns 0x400 (0007ms, 1697ms total)
T02E8 002:200 JLINK_WriteReg(R0, 0x08001000)  returns 0x00 (0000ms, 1704ms total)
T02E8 002:200 JLINK_WriteReg(R1, 0x00000400)  returns 0x00 (0000ms, 1704ms total)
T02E8 002:200 JLINK_WriteReg(R2, 0x20000164)  returns 0x00 (0000ms, 1704ms total)
T02E8 002:200 JLINK_WriteReg(R3, 0x00000000)  returns 0x00 (0000ms, 1704ms total)
T02E8 002:200 JLINK_WriteReg(R4, 0x00000000)  returns 0x00 (0000ms, 1704ms total)
T02E8 002:200 JLINK_WriteReg(R5, 0x00000000)  returns 0x00 (0000ms, 1704ms total)
T02E8 002:200 JLINK_WriteReg(R6, 0x00000000)  returns 0x00 (0000ms, 1704ms total)
T02E8 002:200 JLINK_WriteReg(R7, 0x00000000)  returns 0x00 (0000ms, 1704ms total)
T02E8 002:200 JLINK_WriteReg(R8, 0x00000000)  returns 0x00 (0000ms, 1704ms total)
T02E8 002:200 JLINK_WriteReg(R9, 0x20000160)  returns 0x00 (0000ms, 1704ms total)
T02E8 002:200 JLINK_WriteReg(R10, 0x00000000)  returns 0x00 (0000ms, 1704ms total)
T02E8 002:200 JLINK_WriteReg(R11, 0x00000000)  returns 0x00 (0000ms, 1704ms total)
T02E8 002:200 JLINK_WriteReg(R12, 0x00000000)  returns 0x00 (0000ms, 1704ms total)
T02E8 002:200 JLINK_WriteReg(R13, 0x20000800)  returns 0x00 (0000ms, 1704ms total)
T02E8 002:200 JLINK_WriteReg(R14, 0x20000001)  returns 0x00 (0000ms, 1704ms total)
T02E8 002:200 JLINK_WriteReg(R15, 0x200000F4)  returns 0x00 (0000ms, 1704ms total)
T02E8 002:200 JLINK_WriteReg(XPSR, 0x01000000)  returns 0x00 (0000ms, 1704ms total)
T02E8 002:200 JLINK_WriteReg(MSP, 0x20000800)  returns 0x00 (0000ms, 1704ms total)
T02E8 002:200 JLINK_WriteReg(PSP, 0x20000800)  returns 0x00 (0000ms, 1704ms total)
T02E8 002:201 JLINK_WriteReg(CFBP, 0x00000000)  returns 0x00 (0000ms, 1705ms total)
T02E8 002:201 JLINK_SetBPEx(Addr = 0x20000000, Type = 0xFFFFFFF2)  returns 0x00000009 (0000ms, 1705ms total)
T02E8 002:201 JLINK_Go() -- CPU_WriteMem(4 bytes @ 0xE0002008) -- CPU_WriteMem(4 bytes @ 0xE000200C) -- CPU_WriteMem(4 bytes @ 0xE0002010) -- CPU_WriteMem(4 bytes @ 0xE0002014) -- CPU_WriteMem(4 bytes @ 0xE0002018) -- CPU_WriteMem(4 bytes @ 0xE000201C) (0009ms, 1705ms total)
T02E8 002:210 JLINK_IsHalted()  returns FALSE (0001ms, 1714ms total)
T02E8 002:262 JLINK_IsHalted() -- CPU_ReadMem(2 bytes @ 0x20000000)  returns TRUE (0007ms, 1714ms total)
T02E8 002:269 JLINK_ReadReg(R15)  returns 0x20000000 (0000ms, 1714ms total)
T02E8 002:269 JLINK_ClrBPEx(BPHandle = 0x00000009)  returns 0x00 (0000ms, 1714ms total)
T02E8 002:269 JLINK_ReadReg(R0)  returns 0x00000000 (0000ms, 1714ms total)
T02E8 002:270 JLINK_WriteMem(0x20000164, 0x0400 Bytes, ...) -- Data:  D4 4C 60 78 18 B1 BD E8 1C 40 D4 48 B6 E7 D2 48 ... -- CPU_WriteMem(1024 bytes @ 0x20000164)  returns 0x400 (0007ms, 1714ms total)
T02E8 002:277 JLINK_WriteReg(R0, 0x08001400)  returns 0x00 (0000ms, 1721ms total)
T02E8 002:277 JLINK_WriteReg(R1, 0x00000400)  returns 0x00 (0000ms, 1721ms total)
T02E8 002:277 JLINK_WriteReg(R2, 0x20000164)  returns 0x00 (0000ms, 1721ms total)
T02E8 002:277 JLINK_WriteReg(R3, 0x00000000)  returns 0x00 (0000ms, 1721ms total)
T02E8 002:277 JLINK_WriteReg(R4, 0x00000000)  returns 0x00 (0000ms, 1721ms total)
T02E8 002:277 JLINK_WriteReg(R5, 0x00000000)  returns 0x00 (0000ms, 1721ms total)
T02E8 002:277 JLINK_WriteReg(R6, 0x00000000)  returns 0x00 (0000ms, 1721ms total)
T02E8 002:277 JLINK_WriteReg(R7, 0x00000000)  returns 0x00 (0000ms, 1721ms total)
T02E8 002:277 JLINK_WriteReg(R8, 0x00000000)  returns 0x00 (0000ms, 1721ms total)
T02E8 002:277 JLINK_WriteReg(R9, 0x20000160)  returns 0x00 (0000ms, 1721ms total)
T02E8 002:277 JLINK_WriteReg(R10, 0x00000000)  returns 0x00 (0000ms, 1721ms total)
T02E8 002:277 JLINK_WriteReg(R11, 0x00000000)  returns 0x00 (0000ms, 1721ms total)
T02E8 002:277 JLINK_WriteReg(R12, 0x00000000)  returns 0x00 (0000ms, 1721ms total)
T02E8 002:277 JLINK_WriteReg(R13, 0x20000800)  returns 0x00 (0000ms, 1721ms total)
T02E8 002:277 JLINK_WriteReg(R14, 0x20000001)  returns 0x00 (0000ms, 1721ms total)
T02E8 002:277 JLINK_WriteReg(R15, 0x200000F4)  returns 0x00 (0000ms, 1721ms total)
T02E8 002:277 JLINK_WriteReg(XPSR, 0x01000000)  returns 0x00 (0000ms, 1721ms total)
T02E8 002:277 JLINK_WriteReg(MSP, 0x20000800)  returns 0x00 (0000ms, 1721ms total)
T02E8 002:277 JLINK_WriteReg(PSP, 0x20000800)  returns 0x00 (0000ms, 1721ms total)
T02E8 002:277 JLINK_WriteReg(CFBP, 0x00000000)  returns 0x00 (0000ms, 1721ms total)
T02E8 002:277 JLINK_SetBPEx(Addr = 0x20000000, Type = 0xFFFFFFF2)  returns 0x0000000A (0000ms, 1721ms total)
T02E8 002:277 JLINK_Go() -- CPU_WriteMem(4 bytes @ 0xE0002008) -- CPU_WriteMem(4 bytes @ 0xE000200C) -- CPU_WriteMem(4 bytes @ 0xE0002010) -- CPU_WriteMem(4 bytes @ 0xE0002014) -- CPU_WriteMem(4 bytes @ 0xE0002018) -- CPU_WriteMem(4 bytes @ 0xE000201C) (0010ms, 1721ms total)
T02E8 002:287 JLINK_IsHalted()  returns FALSE (0001ms, 1731ms total)
T02E8 002:339 JLINK_IsHalted() -- CPU_ReadMem(2 bytes @ 0x20000000)  returns TRUE (0021ms, 1731ms total)
T02E8 002:360 JLINK_ReadReg(R15)  returns 0x20000000 (0000ms, 1731ms total)
T02E8 002:360 JLINK_ClrBPEx(BPHandle = 0x0000000A)  returns 0x00 (0000ms, 1731ms total)
T02E8 002:360 JLINK_ReadReg(R0)  returns 0x00000000 (0000ms, 1731ms total)
T02E8 002:361 JLINK_WriteMem(0x20000164, 0x0400 Bytes, ...) -- Data:  68 46 00 F0 54 FC 03 E0 D5 E9 00 01 CD E9 00 01 ... -- CPU_WriteMem(1024 bytes @ 0x20000164)  returns 0x400 (0007ms, 1731ms total)
T02E8 002:368 JLINK_WriteReg(R0, 0x08001800)  returns 0x00 (0000ms, 1738ms total)
T02E8 002:368 JLINK_WriteReg(R1, 0x00000400)  returns 0x00 (0000ms, 1738ms total)
T02E8 002:368 JLINK_WriteReg(R2, 0x20000164)  returns 0x00 (0000ms, 1738ms total)
T02E8 002:368 JLINK_WriteReg(R3, 0x00000000)  returns 0x00 (0000ms, 1738ms total)
T02E8 002:368 JLINK_WriteReg(R4, 0x00000000)  returns 0x00 (0000ms, 1738ms total)
T02E8 002:368 JLINK_WriteReg(R5, 0x00000000)  returns 0x00 (0000ms, 1738ms total)
T02E8 002:368 JLINK_WriteReg(R6, 0x00000000)  returns 0x00 (0000ms, 1738ms total)
T02E8 002:368 JLINK_WriteReg(R7, 0x00000000)  returns 0x00 (0000ms, 1738ms total)
T02E8 002:368 JLINK_WriteReg(R8, 0x00000000)  returns 0x00 (0000ms, 1738ms total)
T02E8 002:368 JLINK_WriteReg(R9, 0x20000160)  returns 0x00 (0000ms, 1738ms total)
T02E8 002:368 JLINK_WriteReg(R10, 0x00000000)  returns 0x00 (0000ms, 1738ms total)
T02E8 002:368 JLINK_WriteReg(R11, 0x00000000)  returns 0x00 (0000ms, 1738ms total)
T02E8 002:368 JLINK_WriteReg(R12, 0x00000000)  returns 0x00 (0000ms, 1738ms total)
T02E8 002:368 JLINK_WriteReg(R13, 0x20000800)  returns 0x00 (0000ms, 1738ms total)
T02E8 002:368 JLINK_WriteReg(R14, 0x20000001)  returns 0x00 (0000ms, 1738ms total)
T02E8 002:368 JLINK_WriteReg(R15, 0x200000F4)  returns 0x00 (0000ms, 1738ms total)
T02E8 002:368 JLINK_WriteReg(XPSR, 0x01000000)  returns 0x00 (0000ms, 1738ms total)
T02E8 002:368 JLINK_WriteReg(MSP, 0x20000800)  returns 0x00 (0000ms, 1738ms total)
T02E8 002:368 JLINK_WriteReg(PSP, 0x20000800)  returns 0x00 (0000ms, 1738ms total)
T02E8 002:368 JLINK_WriteReg(CFBP, 0x00000000)  returns 0x00 (0000ms, 1738ms total)
T02E8 002:368 JLINK_SetBPEx(Addr = 0x20000000, Type = 0xFFFFFFF2)  returns 0x0000000B (0001ms, 1738ms total)
T02E8 002:369 JLINK_Go() -- CPU_WriteMem(4 bytes @ 0xE0002008) -- CPU_WriteMem(4 bytes @ 0xE000200C) -- CPU_WriteMem(4 bytes @ 0xE0002010) -- CPU_WriteMem(4 bytes @ 0xE0002014) -- CPU_WriteMem(4 bytes @ 0xE0002018) -- CPU_WriteMem(4 bytes @ 0xE000201C) (0009ms, 1739ms total)
T02E8 002:378 JLINK_IsHalted()  returns FALSE (0001ms, 1748ms total)
T02E8 002:430 JLINK_IsHalted() -- CPU_ReadMem(2 bytes @ 0x20000000)  returns TRUE (0007ms, 1748ms total)
T02E8 002:437 JLINK_ReadReg(R15)  returns 0x20000000 (0000ms, 1748ms total)
T02E8 002:437 JLINK_ClrBPEx(BPHandle = 0x0000000B)  returns 0x00 (0000ms, 1748ms total)
T02E8 002:437 JLINK_ReadReg(R0)  returns 0x00000000 (0000ms, 1748ms total)
T02E8 002:438 JLINK_WriteMem(0x20000164, 0x0400 Bytes, ...) -- Data:  01 46 68 46 00 F0 36 FA B9 6B 89 B1 0A 68 02 92 ... -- CPU_WriteMem(1024 bytes @ 0x20000164)  returns 0x400 (0007ms, 1748ms total)
T02E8 002:445 JLINK_WriteReg(R0, 0x08001C00)  returns 0x00 (0000ms, 1755ms total)
T02E8 002:445 JLINK_WriteReg(R1, 0x00000400)  returns 0x00 (0000ms, 1755ms total)
T02E8 002:445 JLINK_WriteReg(R2, 0x20000164)  returns 0x00 (0000ms, 1755ms total)
T02E8 002:445 JLINK_WriteReg(R3, 0x00000000)  returns 0x00 (0000ms, 1755ms total)
T02E8 002:445 JLINK_WriteReg(R4, 0x00000000)  returns 0x00 (0000ms, 1755ms total)
T02E8 002:445 JLINK_WriteReg(R5, 0x00000000)  returns 0x00 (0000ms, 1755ms total)
T02E8 002:445 JLINK_WriteReg(R6, 0x00000000)  returns 0x00 (0000ms, 1755ms total)
T02E8 002:445 JLINK_WriteReg(R7, 0x00000000)  returns 0x00 (0000ms, 1755ms total)
T02E8 002:445 JLINK_WriteReg(R8, 0x00000000)  returns 0x00 (0000ms, 1755ms total)
T02E8 002:445 JLINK_WriteReg(R9, 0x20000160)  returns 0x00 (0000ms, 1755ms total)
T02E8 002:445 JLINK_WriteReg(R10, 0x00000000)  returns 0x00 (0000ms, 1755ms total)
T02E8 002:445 JLINK_WriteReg(R11, 0x00000000)  returns 0x00 (0000ms, 1755ms total)
T02E8 002:445 JLINK_WriteReg(R12, 0x00000000)  returns 0x00 (0000ms, 1755ms total)
T02E8 002:445 JLINK_WriteReg(R13, 0x20000800)  returns 0x00 (0000ms, 1755ms total)
T02E8 002:445 JLINK_WriteReg(R14, 0x20000001)  returns 0x00 (0000ms, 1755ms total)
T02E8 002:445 JLINK_WriteReg(R15, 0x200000F4)  returns 0x00 (0000ms, 1755ms total)
T02E8 002:445 JLINK_WriteReg(XPSR, 0x01000000)  returns 0x00 (0000ms, 1755ms total)
T02E8 002:445 JLINK_WriteReg(MSP, 0x20000800)  returns 0x00 (0000ms, 1755ms total)
T02E8 002:445 JLINK_WriteReg(PSP, 0x20000800)  returns 0x00 (0000ms, 1755ms total)
T02E8 002:445 JLINK_WriteReg(CFBP, 0x00000000)  returns 0x00 (0000ms, 1755ms total)
T02E8 002:445 JLINK_SetBPEx(Addr = 0x20000000, Type = 0xFFFFFFF2)  returns 0x0000000C (0000ms, 1755ms total)
T02E8 002:446 JLINK_Go() -- CPU_WriteMem(4 bytes @ 0xE0002008) -- CPU_WriteMem(4 bytes @ 0xE000200C) -- CPU_WriteMem(4 bytes @ 0xE0002010) -- CPU_WriteMem(4 bytes @ 0xE0002014) -- CPU_WriteMem(4 bytes @ 0xE0002018) -- CPU_WriteMem(4 bytes @ 0xE000201C) (0009ms, 1756ms total)
T02E8 002:455 JLINK_IsHalted()  returns FALSE (0001ms, 1765ms total)
T02E8 002:507 JLINK_IsHalted() -- CPU_ReadMem(2 bytes @ 0x20000000)  returns TRUE (0007ms, 1765ms total)
T02E8 002:514 JLINK_ReadReg(R15)  returns 0x20000000 (0000ms, 1765ms total)
T02E8 002:514 JLINK_ClrBPEx(BPHandle = 0x0000000C)  returns 0x00 (0000ms, 1765ms total)
T02E8 002:514 JLINK_ReadReg(R0)  returns 0x00000000 (0000ms, 1765ms total)
T02E8 002:515 JLINK_WriteMem(0x20000164, 0x0400 Bytes, ...) -- Data:  FF F7 9D FA A0 8B 40 07 12 D5 D4 E9 02 01 CD E9 ... -- CPU_WriteMem(1024 bytes @ 0x20000164)  returns 0x400 (0007ms, 1765ms total)
T02E8 002:522 JLINK_WriteReg(R0, 0x08002000)  returns 0x00 (0000ms, 1772ms total)
T02E8 002:522 JLINK_WriteReg(R1, 0x00000400)  returns 0x00 (0000ms, 1772ms total)
T02E8 002:522 JLINK_WriteReg(R2, 0x20000164)  returns 0x00 (0000ms, 1772ms total)
T02E8 002:522 JLINK_WriteReg(R3, 0x00000000)  returns 0x00 (0000ms, 1772ms total)
T02E8 002:522 JLINK_WriteReg(R4, 0x00000000)  returns 0x00 (0000ms, 1772ms total)
T02E8 002:522 JLINK_WriteReg(R5, 0x00000000)  returns 0x00 (0000ms, 1772ms total)
T02E8 002:522 JLINK_WriteReg(R6, 0x00000000)  returns 0x00 (0000ms, 1772ms total)
T02E8 002:522 JLINK_WriteReg(R7, 0x00000000)  returns 0x00 (0000ms, 1772ms total)
T02E8 002:522 JLINK_WriteReg(R8, 0x00000000)  returns 0x00 (0000ms, 1772ms total)
T02E8 002:522 JLINK_WriteReg(R9, 0x20000160)  returns 0x00 (0000ms, 1772ms total)
T02E8 002:522 JLINK_WriteReg(R10, 0x00000000)  returns 0x00 (0000ms, 1772ms total)
T02E8 002:522 JLINK_WriteReg(R11, 0x00000000)  returns 0x00 (0000ms, 1772ms total)
T02E8 002:522 JLINK_WriteReg(R12, 0x00000000)  returns 0x00 (0000ms, 1772ms total)
T02E8 002:522 JLINK_WriteReg(R13, 0x20000800)  returns 0x00 (0000ms, 1772ms total)
T02E8 002:522 JLINK_WriteReg(R14, 0x20000001)  returns 0x00 (0000ms, 1772ms total)
T02E8 002:522 JLINK_WriteReg(R15, 0x200000F4)  returns 0x00 (0000ms, 1772ms total)
T02E8 002:522 JLINK_WriteReg(XPSR, 0x01000000)  returns 0x00 (0000ms, 1772ms total)
T02E8 002:522 JLINK_WriteReg(MSP, 0x20000800)  returns 0x00 (0000ms, 1772ms total)
T02E8 002:522 JLINK_WriteReg(PSP, 0x20000800)  returns 0x00 (0000ms, 1772ms total)
T02E8 002:522 JLINK_WriteReg(CFBP, 0x00000000)  returns 0x00 (0000ms, 1772ms total)
T02E8 002:522 JLINK_SetBPEx(Addr = 0x20000000, Type = 0xFFFFFFF2)  returns 0x0000000D (0000ms, 1772ms total)
T02E8 002:522 JLINK_Go() -- CPU_WriteMem(4 bytes @ 0xE0002008) -- CPU_WriteMem(4 bytes @ 0xE000200C) -- CPU_WriteMem(4 bytes @ 0xE0002010) -- CPU_WriteMem(4 bytes @ 0xE0002014) -- CPU_WriteMem(4 bytes @ 0xE0002018) -- CPU_WriteMem(4 bytes @ 0xE000201C) (0010ms, 1772ms total)
T02E8 002:532 JLINK_IsHalted()  returns FALSE (0001ms, 1782ms total)
T02E8 002:584 JLINK_IsHalted() -- CPU_ReadMem(2 bytes @ 0x20000000)  returns TRUE (0007ms, 1782ms total)
T02E8 002:591 JLINK_ReadReg(R15)  returns 0x20000000 (0000ms, 1782ms total)
T02E8 002:591 JLINK_ClrBPEx(BPHandle = 0x0000000D)  returns 0x00 (0000ms, 1782ms total)
T02E8 002:591 JLINK_ReadReg(R0)  returns 0x00000000 (0000ms, 1782ms total)
T02E8 002:592 JLINK_WriteMem(0x20000164, 0x0400 Bytes, ...) -- Data:  36 F9 25 00 A3 EB 04 01 A2 EB 04 02 51 40 39 D4 ... -- CPU_WriteMem(1024 bytes @ 0x20000164)  returns 0x400 (0007ms, 1782ms total)
T02E8 002:599 JLINK_WriteReg(R0, 0x08002400)  returns 0x00 (0000ms, 1789ms total)
T02E8 002:599 JLINK_WriteReg(R1, 0x00000400)  returns 0x00 (0000ms, 1789ms total)
T02E8 002:599 JLINK_WriteReg(R2, 0x20000164)  returns 0x00 (0000ms, 1789ms total)
T02E8 002:599 JLINK_WriteReg(R3, 0x00000000)  returns 0x00 (0000ms, 1789ms total)
T02E8 002:599 JLINK_WriteReg(R4, 0x00000000)  returns 0x00 (0000ms, 1789ms total)
T02E8 002:599 JLINK_WriteReg(R5, 0x00000000)  returns 0x00 (0000ms, 1789ms total)
T02E8 002:599 JLINK_WriteReg(R6, 0x00000000)  returns 0x00 (0000ms, 1789ms total)
T02E8 002:599 JLINK_WriteReg(R7, 0x00000000)  returns 0x00 (0000ms, 1789ms total)
T02E8 002:599 JLINK_WriteReg(R8, 0x00000000)  returns 0x00 (0000ms, 1789ms total)
T02E8 002:599 JLINK_WriteReg(R9, 0x20000160)  returns 0x00 (0000ms, 1789ms total)
T02E8 002:599 JLINK_WriteReg(R10, 0x00000000)  returns 0x00 (0000ms, 1789ms total)
T02E8 002:599 JLINK_WriteReg(R11, 0x00000000)  returns 0x00 (0000ms, 1789ms total)
T02E8 002:599 JLINK_WriteReg(R12, 0x00000000)  returns 0x00 (0000ms, 1789ms total)
T02E8 002:599 JLINK_WriteReg(R13, 0x20000800)  returns 0x00 (0000ms, 1789ms total)
T02E8 002:599 JLINK_WriteReg(R14, 0x20000001)  returns 0x00 (0000ms, 1789ms total)
T02E8 002:599 JLINK_WriteReg(R15, 0x200000F4)  returns 0x00 (0000ms, 1789ms total)
T02E8 002:599 JLINK_WriteReg(XPSR, 0x01000000)  returns 0x00 (0000ms, 1789ms total)
T02E8 002:599 JLINK_WriteReg(MSP, 0x20000800)  returns 0x00 (0000ms, 1789ms total)
T02E8 002:599 JLINK_WriteReg(PSP, 0x20000800)  returns 0x00 (0000ms, 1789ms total)
T02E8 002:599 JLINK_WriteReg(CFBP, 0x00000000)  returns 0x00 (0001ms, 1789ms total)
T02E8 002:600 JLINK_SetBPEx(Addr = 0x20000000, Type = 0xFFFFFFF2)  returns 0x0000000E (0000ms, 1790ms total)
T02E8 002:600 JLINK_Go() -- CPU_WriteMem(4 bytes @ 0xE0002008) -- CPU_WriteMem(4 bytes @ 0xE000200C) -- CPU_WriteMem(4 bytes @ 0xE0002010) -- CPU_WriteMem(4 bytes @ 0xE0002014) -- CPU_WriteMem(4 bytes @ 0xE0002018) -- CPU_WriteMem(4 bytes @ 0xE000201C) (0009ms, 1790ms total)
T02E8 002:609 JLINK_IsHalted()  returns FALSE (0001ms, 1799ms total)
T02E8 002:661 JLINK_IsHalted() -- CPU_ReadMem(2 bytes @ 0x20000000)  returns TRUE (0007ms, 1799ms total)
T02E8 002:668 JLINK_ReadReg(R15)  returns 0x20000000 (0000ms, 1799ms total)
T02E8 002:668 JLINK_ClrBPEx(BPHandle = 0x0000000E)  returns 0x00 (0000ms, 1799ms total)
T02E8 002:668 JLINK_ReadReg(R0)  returns 0x00000000 (0000ms, 1799ms total)
T02E8 002:669 JLINK_WriteMem(0x20000164, 0x0400 Bytes, ...) -- Data:  6C B1 BB 49 01 44 07 EB 45 00 B0 F9 02 20 08 1B ... -- CPU_WriteMem(1024 bytes @ 0x20000164)  returns 0x400 (0007ms, 1799ms total)
T02E8 002:676 JLINK_WriteReg(R0, 0x08002800)  returns 0x00 (0000ms, 1806ms total)
T02E8 002:676 JLINK_WriteReg(R1, 0x00000400)  returns 0x00 (0000ms, 1806ms total)
T02E8 002:676 JLINK_WriteReg(R2, 0x20000164)  returns 0x00 (0000ms, 1806ms total)
T02E8 002:676 JLINK_WriteReg(R3, 0x00000000)  returns 0x00 (0000ms, 1806ms total)
T02E8 002:676 JLINK_WriteReg(R4, 0x00000000)  returns 0x00 (0000ms, 1806ms total)
T02E8 002:676 JLINK_WriteReg(R5, 0x00000000)  returns 0x00 (0000ms, 1806ms total)
T02E8 002:676 JLINK_WriteReg(R6, 0x00000000)  returns 0x00 (0000ms, 1806ms total)
T02E8 002:676 JLINK_WriteReg(R7, 0x00000000)  returns 0x00 (0000ms, 1806ms total)
T02E8 002:676 JLINK_WriteReg(R8, 0x00000000)  returns 0x00 (0000ms, 1806ms total)
T02E8 002:676 JLINK_WriteReg(R9, 0x20000160)  returns 0x00 (0000ms, 1806ms total)
T02E8 002:676 JLINK_WriteReg(R10, 0x00000000)  returns 0x00 (0000ms, 1806ms total)
T02E8 002:676 JLINK_WriteReg(R11, 0x00000000)  returns 0x00 (0000ms, 1806ms total)
T02E8 002:676 JLINK_WriteReg(R12, 0x00000000)  returns 0x00 (0000ms, 1806ms total)
T02E8 002:676 JLINK_WriteReg(R13, 0x20000800)  returns 0x00 (0000ms, 1806ms total)
T02E8 002:676 JLINK_WriteReg(R14, 0x20000001)  returns 0x00 (0000ms, 1806ms total)
T02E8 002:676 JLINK_WriteReg(R15, 0x200000F4)  returns 0x00 (0000ms, 1806ms total)
T02E8 002:676 JLINK_WriteReg(XPSR, 0x01000000)  returns 0x00 (0000ms, 1806ms total)
T02E8 002:676 JLINK_WriteReg(MSP, 0x20000800)  returns 0x00 (0000ms, 1806ms total)
T02E8 002:676 JLINK_WriteReg(PSP, 0x20000800)  returns 0x00 (0000ms, 1806ms total)
T02E8 002:676 JLINK_WriteReg(CFBP, 0x00000000)  returns 0x00 (0000ms, 1806ms total)
T02E8 002:676 JLINK_SetBPEx(Addr = 0x20000000, Type = 0xFFFFFFF2)  returns 0x0000000F (0000ms, 1806ms total)
T02E8 002:676 JLINK_Go() -- CPU_WriteMem(4 bytes @ 0xE0002008) -- CPU_WriteMem(4 bytes @ 0xE000200C) -- CPU_WriteMem(4 bytes @ 0xE0002010) -- CPU_WriteMem(4 bytes @ 0xE0002014) -- CPU_WriteMem(4 bytes @ 0xE0002018) -- CPU_WriteMem(4 bytes @ 0xE000201C) (0010ms, 1806ms total)
T02E8 002:686 JLINK_IsHalted()  returns FALSE (0001ms, 1816ms total)
T02E8 002:738 JLINK_IsHalted() -- CPU_ReadMem(2 bytes @ 0x20000000)  returns TRUE (0007ms, 1816ms total)
T02E8 002:745 JLINK_ReadReg(R15)  returns 0x20000000 (0000ms, 1816ms total)
T02E8 002:745 JLINK_ClrBPEx(BPHandle = 0x0000000F)  returns 0x00 (0000ms, 1816ms total)
T02E8 002:745 JLINK_ReadReg(R0)  returns 0x00000000 (0000ms, 1816ms total)
T02E8 002:746 JLINK_WriteMem(0x20000164, 0x0400 Bytes, ...) -- Data:  C0 1A 49 68 80 B2 01 EB 80 00 B0 F9 00 50 B0 F9 ... -- CPU_WriteMem(1024 bytes @ 0x20000164)  returns 0x400 (0007ms, 1816ms total)
T02E8 002:753 JLINK_WriteReg(R0, 0x08002C00)  returns 0x00 (0000ms, 1823ms total)
T02E8 002:753 JLINK_WriteReg(R1, 0x00000400)  returns 0x00 (0000ms, 1823ms total)
T02E8 002:753 JLINK_WriteReg(R2, 0x20000164)  returns 0x00 (0000ms, 1823ms total)
T02E8 002:753 JLINK_WriteReg(R3, 0x00000000)  returns 0x00 (0000ms, 1823ms total)
T02E8 002:753 JLINK_WriteReg(R4, 0x00000000)  returns 0x00 (0000ms, 1823ms total)
